T1710 1676:158.169   SEGGER J-Link V6.80d Log File
T1710 1676:158.212   DLL Compiled: Jun 26 2020 17:16:09
T1710 1676:158.218   Logging started @ 2021-09-23 01:07
T1710 1676:158.227 JLINK_SetWarnOutHandler(...)
T1710 1676:158.233 - 0.009ms
T1710 1676:158.241 JLINK_OpenEx(...)
T1710 1676:161.027   Firmware: J-Link OB-STM32F072-CortexM compiled Jan  7 2019 14:09:37
T1710 1676:161.165   Decompressing FW timestamp took 119 us
T1710 1676:184.008   Hardware: V1.00
T1710 1676:184.026   S/N: 4294967295
T1710 1676:184.034   OEM: SEGGER
T1710 1676:184.043   Feature(s): GDB, RDI, FlashBP, FlashDL, JFlash, RDDI
T1710 1676:187.694   TELNET listener socket opened on port 19021
T1710 1676:192.389   Device "CORTEX-M4" selected.
T1710 1676:193.275   WEBSRV Starting webserver
T1710 1676:193.376   WEBSRV Webserver running on local port 19080
T1710 1676:193.386 - 35.148ms returns "O.K."
T1710 1676:194.091 JLINK_GetEmuCaps()
T1710 1676:194.105 - 0.017ms returns 0xB8EA5A33
T1710 1676:194.116 JLINK_TIF_GetAvailable(...)
T1710 1676:194.583 - 0.471ms
T1710 1676:194.593 JLINK_SetErrorOutHandler(...)
T1710 1676:194.600 - 0.009ms
T1710 1676:194.610 JLINK_ExecCommand("ProjectFile = "D:\work\open_module\LoraWan_demo\PingPong_V1.0\MDK-ARM\JLinkSettings.ini"", ...). 
T1710 1676:196.915   Device "CORTEX-M4" selected.
T1710 1676:197.167 - 2.563ms returns 0x00
T1710 1676:200.104 JLINK_ExecCommand("Device = STM32WLE5CBUx", ...). 
T1710 1676:202.139   Device "CORTEX-M4" selected.
T1710 1676:202.409 - 2.298ms returns 0x00
T1710 1676:202.420 JLINK_ExecCommand("DisableConnectionTimeout", ...). 
T1710 1676:202.430 - 0.005ms returns 0x01
T1710 1676:202.439 JLINK_GetHardwareVersion()
T1710 1676:202.445 - 0.009ms returns 0x2710
T1710 1676:202.453 JLINK_GetDLLVersion()  returns 68004
T1710 1676:202.462 JLINK_GetFirmwareString(...)
T1710 1676:202.468 - 0.008ms
T1710 1676:208.489 JLINK_GetDLLVersion()  returns 68004
T1710 1676:208.509 JLINK_GetCompileDateTime()
T1710 1676:208.515 - 0.009ms
T1710 1676:210.426 JLINK_GetFirmwareString(...)
T1710 1676:210.436 - 0.013ms
T1710 1676:212.327 JLINK_GetHardwareVersion()
T1710 1676:212.337 - 0.013ms returns 0x2710
T1710 1676:217.996 JLINK_TIF_Select(JLINKARM_TIF_SWD)
T1710 1676:220.053 - 2.065ms returns 0x00
T1710 1676:220.071 JLINK_SetSpeed(5000)
T1710 1676:220.173 - 0.105ms
T1710 1676:220.183 JLINK_GetId()
T1710 1676:225.574   Found SW-DP with ID 0x6BA02477
T1710 1676:231.608   Old FW that does not support reading DPIDR via DAP jobs
T1710 1676:235.934   Unknown DP version. Assuming DPv0
T1710 1676:237.840   Scanning AP map to find all available APs
T1710 1676:241.532   AP[2]: Stopped AP scan as end of AP map has been reached
T1710 1676:243.446   AP[0]: AHB-AP (IDR: 0x24770011)
T1710 1676:245.376   AP[1]: AHB-AP (IDR: 0x84770001)
T1710 1676:247.376   Iterating through AP map to find AHB-AP to use
T1710 1676:251.594   AP[0]: Core found
T1710 1676:253.526   AP[0]: AHB-AP ROM base: 0xE00FF000
T1710 1676:256.423   CPUID register: 0x410FC241. Implementer code: 0x41 (ARM)
T1710 1676:258.354   Found Cortex-M4 r0p1, Little endian.
T1710 1676:360.587   -- Max. mem block: 0x00002340
T1710 1676:360.607   CPU_ReadMem(4 bytes @ 0xE000EDF0)
T1710 1676:362.009   CPU_WriteMem(4 bytes @ 0xE000EDF0)
T1710 1676:362.586   CPU_ReadMem(4 bytes @ 0xE0002000)
T1710 1676:366.169   FPUnit: 6 code (BP) slots and 2 literal slots
T1710 1676:366.186   CPU_ReadMem(4 bytes @ 0xE000EDFC)
T1710 1676:367.011   CPU_WriteMem(4 bytes @ 0xE000EDFC)
T1710 1676:367.587   CPU_ReadMem(4 bytes @ 0xE0001000)
T1710 1676:368.590   CPU_WriteMem(4 bytes @ 0xE0001000)
T1710 1676:369.588   CPU_ReadMem(4 bytes @ 0xE000ED88)
T1710 1676:370.591   CPU_WriteMem(4 bytes @ 0xE000ED88)
T1710 1676:371.601   CPU_ReadMem(4 bytes @ 0xE000ED88)
T1710 1676:372.598   CPU_WriteMem(4 bytes @ 0xE000ED88)
T1710 1676:375.959   CoreSight components:
T1710 1676:378.045   ROMTbl[0] @ E00FF000
T1710 1676:378.059   CPU_ReadMem(64 bytes @ 0xE00FF000)
T1710 1676:380.006   CPU_ReadMem(32 bytes @ 0xE000EFE0)
T1710 1676:384.758   ROMTbl[0][0]: E000E000, CID: B105E00D, PID: 000BB000 SCS
T1710 1676:384.810   CPU_ReadMem(32 bytes @ 0xE0001FE0)
T1710 1676:387.554   ROMTbl[0][1]: E0001000, CID: B105E00D, PID: 003BB002 DWT
T1710 1676:387.568   CPU_ReadMem(32 bytes @ 0xE0002FE0)
T1710 1676:390.578   ROMTbl[0][2]: E0002000, CID: B105E00D, PID: 002BB003 FPB
T1710 1676:390.593   CPU_ReadMem(32 bytes @ 0xE0000FE0)
T1710 1676:393.540   ROMTbl[0][3]: E0000000, CID: B105E00D, PID: 003BB001 ITM
T1710 1676:393.555   CPU_ReadMem(32 bytes @ 0xE0040FE0)
T1710 1676:396.548   ROMTbl[0][4]: E0040000, CID: B105900D, PID: 000BB9A1 TPIU
T1710 1676:396.563   CPU_ReadMem(32 bytes @ 0xE0043FE0)
T1710 1676:399.563   ROMTbl[0][6]: E0043000, CID: B105900D, PID: 005BB906 CTI
T1710 1676:400.588 - 180.408ms   returns 0x6BA02477
T1710 1676:400.601 JLINK_GetDLLVersion()  returns 68004
T1710 1676:400.636 JLINK_CORE_GetFound()
T1710 1676:400.642 - 0.009ms returns 0xE0000FF
T1710 1676:400.650 JLINK_GetDebugInfo(0x100 = JLINKARM_ROM_TABLE_ADDR_INDEX)
T1710 1676:400.657   Value=0xE00FF000
T1710 1676:400.666 - 0.018ms returns 0x00
T1710 1676:402.628 JLINK_GetDebugInfo(0x100 = JLINKARM_ROM_TABLE_ADDR_INDEX)
T1710 1676:402.639   Value=0xE00FF000
T1710 1676:402.648 - 0.022ms returns 0x00
T1710 1676:402.655 JLINK_GetDebugInfo(0x101 = JLINKARM_DEBUG_INFO_ETM_ADDR_INDEX)
T1710 1676:402.661   Value=0x00000000
T1710 1676:402.669 - 0.017ms returns 0x00
T1710 1676:402.678   JLINK_ReadMemEx(0xE0041FF0, 0x0010 Bytes, ..., Flags = 0x02000004)
T1710 1676:402.692   CPU_ReadMem(16 bytes @ 0xE0041FF0)
T1710 1676:403.586   Data:  00 00 00 00 00 00 00 00 00 00 00 00 00 00 00 00
T1710 1676:403.598 - 0.922ms returns 0x10
T1710 1676:403.606 JLINK_GetDebugInfo(0x102 = JLINKARM_DEBUG_INFO_MTB_ADDR_INDEX)
T1710 1676:403.612   Value=0x00000000
T1710 1676:403.621 - 0.017ms returns 0x00
T1710 1676:403.627 JLINK_GetDebugInfo(0x103 = JLINKARM_DEBUG_INFO_TPIU_ADDR_INDEX)
T1710 1676:403.633   Value=0xE0040000
T1710 1676:403.642 - 0.017ms returns 0x00
T1710 1676:403.649 JLINK_GetDebugInfo(0x104 = JLINKARM_DEBUG_INFO_ITM_ADDR_INDEX)
T1710 1676:403.655   Value=0xE0000000
T1710 1676:403.663 - 0.016ms returns 0x00
T1710 1676:403.669 JLINK_GetDebugInfo(0x105 = JLINKARM_DEBUG_INFO_DWT_ADDR_INDEX)
T1710 1676:403.675   Value=0xE0001000
T1710 1676:403.683 - 0.016ms returns 0x00
T1710 1676:403.690 JLINK_GetDebugInfo(0x106 = JLINKARM_DEBUG_INFO_FPB_ADDR_INDEX)
T1710 1676:403.696   Value=0xE0002000
T1710 1676:403.704 - 0.016ms returns 0x00
T1710 1676:403.710 JLINK_GetDebugInfo(0x107 = JLINKARM_DEBUG_INFO_NVIC_ADDR_INDEX)
T1710 1676:403.716   Value=0xE000E000
T1710 1676:403.725 - 0.017ms returns 0x00
T1710 1676:403.731 JLINK_GetDebugInfo(0x10C = JLINKARM_DEBUG_INFO_DBG_ADDR_INDEX)
T1710 1676:403.737   Value=0xE000EDF0
T1710 1676:403.745 - 0.017ms returns 0x00
T1710 1676:403.752 JLINK_GetDebugInfo(0x01 = Unknown)
T1710 1676:403.758   Value=0x00000001
T1710 1676:403.766 - 0.017ms returns 0x00
T1710 1676:403.774 JLINK_ReadMemU32(0xE000ED00, 0x0001 Items, ...)
T1710 1676:403.782   CPU_ReadMem(4 bytes @ 0xE000ED00)
T1710 1676:404.585   Data:  41 C2 0F 41
T1710 1676:404.595   Debug reg: CPUID
T1710 1676:404.603 - 0.832ms returns 1
T1710 1676:404.611 JLINK_GetDebugInfo(0x10F = JLINKARM_DEBUG_INFO_HAS_CORTEX_M_SECURITY_EXT_INDEX)
T1710 1676:404.617   Value=0x00000000
T1710 1676:404.625 - 0.017ms returns 0x00
T1710 1676:404.635 JLINK_SetResetType(JLINKARM_CM3_RESET_TYPE_NORMAL)
T1710 1676:404.641 - 0.009ms returns JLINKARM_CM3_RESET_TYPE_NORMAL
T1710 1676:404.649 JLINK_Reset()
T1710 1676:404.658   CPU is running
T1710 1676:404.667   CPU_WriteMem(4 bytes @ 0xE000EDF0)
T1710 1676:405.583   CPU is running
T1710 1676:405.593   CPU_WriteMem(4 bytes @ 0xE000EDFC)
T1710 1676:408.569   Reset: Halt core after reset via DEMCR.VC_CORERESET.
T1710 1676:412.517   Reset: Reset device via AIRCR.SYSRESETREQ.
T1710 1676:412.531   CPU is running
T1710 1676:412.541   CPU_WriteMem(4 bytes @ 0xE000ED0C)
T1710 1676:465.990   CPU_ReadMem(4 bytes @ 0xE000EDF0)
T1710 1676:468.010   CPU_ReadMem(4 bytes @ 0xE000EDF0)
T1710 1676:468.588   CPU is running
T1710 1676:468.600   CPU_WriteMem(4 bytes @ 0xE000EDF0)
T1710 1676:469.586   CPU is running
T1710 1676:469.597   CPU_WriteMem(4 bytes @ 0xE000EDFC)
T1710 1676:475.834   CPU_ReadMem(4 bytes @ 0xE000EDF0)
T1710 1676:482.606   CPU_WriteMem(4 bytes @ 0xE0002000)
T1710 1676:483.586   CPU_ReadMem(4 bytes @ 0xE000EDFC)
T1710 1676:484.588   CPU_ReadMem(4 bytes @ 0xE0001000)
T1710 1676:485.589 - 80.944ms
T1710 1676:485.611 JLINK_Halt()
T1710 1676:485.619 - 0.011ms returns 0x00
T1710 1676:485.628 JLINK_ReadMemU32(0xE000EDF0, 0x0001 Items, ...)
T1710 1676:485.638   CPU_ReadMem(4 bytes @ 0xE000EDF0)
T1710 1676:486.473   Data:  03 00 03 00
T1710 1676:486.484   Debug reg: DHCSR
T1710 1676:486.494 - 0.869ms returns 1
T1710 1676:486.505 JLINK_WriteU32(0xE000EDF0, 0xA05F0003)
T1710 1676:486.513   Debug reg: DHCSR
T1710 1676:486.527   CPU_WriteMem(4 bytes @ 0xE000EDF0)
T1710 1676:487.006 - 0.505ms returns 0
T1710 1676:487.017 JLINK_WriteU32(0xE000EDFC, 0x01000000)
T1710 1676:487.024   Debug reg: DEMCR
T1710 1676:487.036   CPU_WriteMem(4 bytes @ 0xE000EDFC)
T1710 1676:488.006 - 0.993ms returns 0
T1710 1676:497.384 JLINK_GetHWStatus(...)
T1710 1676:498.008 - 0.633ms returns 0x00
T1710 1676:503.668 JLINK_GetNumBPUnits(Type = 0xFFFFFF00)
T1710 1676:503.678 - 0.013ms returns 0x06
T1710 1676:503.686 JLINK_GetNumBPUnits(Type = 0xF0)
T1710 1676:503.692 - 0.009ms returns 0x2000
T1710 1676:503.699 JLINK_GetNumWPUnits()
T1710 1676:503.705 - 0.008ms returns 0x04
T1710 1676:509.578 JLINK_GetSpeed()
T1710 1676:509.591 - 0.016ms returns 0x7D0
T1710 1676:513.348 JLINK_ReadMemU32(0xE000E004, 0x0001 Items, ...)
T1710 1676:513.367   CPU_ReadMem(4 bytes @ 0xE000E004)
T1710 1676:514.007   Data:  02 00 00 00
T1710 1676:514.016 - 0.671ms returns 1
T1710 1676:514.025 JLINK_ReadMemU32(0xE000E004, 0x0001 Items, ...)
T1710 1676:514.034   CPU_ReadMem(4 bytes @ 0xE000E004)
T1710 1676:514.573   Data:  02 00 00 00
T1710 1676:514.587 - 0.565ms returns 1
T1710 1676:514.598 JLINK_WriteMemEx(0xE0001000, 0x001C Bytes, ..., Flags = 0x02000004)
T1710 1676:514.605   Data:  01 00 00 00 00 00 00 00 00 00 00 00 00 00 00 00 ...
T1710 1676:514.772   CPU_WriteMem(28 bytes @ 0xE0001000)
T1710 1676:515.568 - 0.973ms returns 0x1C
T1710 1676:515.578 JLINK_Halt()
T1710 1676:515.584 - 0.008ms returns 0x00
T1710 1676:515.592 JLINK_IsHalted()
T1710 1676:515.599 - 0.009ms returns TRUE
T1710 1676:517.550 JLINK_WriteMem(0x20000000, 0x0294 Bytes, ...)
T1710 1676:517.558   Data:  00 BE 0A E0 0D 78 2D 06 68 40 08 24 40 00 00 D3 ...
T1710 1676:517.708   CPU_WriteMem(660 bytes @ 0x20000000)
T1710 1676:525.571 - 8.027ms returns 0x294
T1710 1676:525.604 JLINK_WriteReg(R0, 0x08000000)
T1710 1676:525.614 - 0.013ms returns 0x00
T1710 1676:525.622 JLINK_WriteReg(R1, 0x01E84800)
T1710 1676:525.629 - 0.010ms returns 0x00
T1710 1676:525.637 JLINK_WriteReg(R2, 0x00000001)
T1710 1676:525.644 - 0.010ms returns 0x00
T1710 1676:525.652 JLINK_WriteReg(R3, 0x00000000)
T1710 1676:525.659 - 0.010ms returns 0x00
T1710 1676:525.666 JLINK_WriteReg(R4, 0x00000000)
T1710 1676:525.673 - 0.010ms returns 0x00
T1710 1676:525.681 JLINK_WriteReg(R5, 0x00000000)
T1710 1676:525.688 - 0.010ms returns 0x00
T1710 1676:525.696 JLINK_WriteReg(R6, 0x00000000)
T1710 1676:525.702 - 0.010ms returns 0x00
T1710 1676:525.710 JLINK_WriteReg(R7, 0x00000000)
T1710 1676:525.717 - 0.010ms returns 0x00
T1710 1676:525.724 JLINK_WriteReg(R8, 0x00000000)
T1710 1676:525.731 - 0.010ms returns 0x00
T1710 1676:525.739 JLINK_WriteReg(R9, 0x20000290)
T1710 1676:525.746 - 0.010ms returns 0x00
T1710 1676:525.753 JLINK_WriteReg(R10, 0x00000000)
T1710 1676:525.760 - 0.010ms returns 0x00
T1710 1676:525.768 JLINK_WriteReg(R11, 0x00000000)
T1710 1676:525.775 - 0.010ms returns 0x00
T1710 1676:525.782 JLINK_WriteReg(R12, 0x00000000)
T1710 1676:525.789 - 0.010ms returns 0x00
T1710 1676:525.797 JLINK_WriteReg(R13 (SP), 0x20001000)
T1710 1676:525.805 - 0.010ms returns 0x00
T1710 1676:525.812 JLINK_WriteReg(R14, 0x20000001)
T1710 1676:525.819 - 0.014ms returns 0x00
T1710 1676:525.832 JLINK_WriteReg(R15 (PC), 0x20000038)
T1710 1676:525.839 - 0.010ms returns 0x00
T1710 1676:525.847 JLINK_WriteReg(XPSR, 0x01000000)
T1710 1676:525.854 - 0.010ms returns 0x00
T1710 1676:525.861 JLINK_WriteReg(MSP, 0x20001000)
T1710 1676:525.868 - 0.010ms returns 0x00
T1710 1676:525.876 JLINK_WriteReg(PSP, 0x20001000)
T1710 1676:525.883 - 0.010ms returns 0x00
T1710 1676:525.890 JLINK_WriteReg(CFBP, 0x00000000)
T1710 1676:525.897 - 0.010ms returns 0x00
T1710 1676:525.906   JLINK_SetBPEx(Addr = 0x20000000, Type = 0xFFFFFFF2)
T1710 1676:525.920   CPU_ReadMem(4 bytes @ 0x20000000)
T1710 1676:526.993   CPU_WriteMem(4 bytes @ 0x20000000)
T1710 1676:527.988   CPU_ReadMem(4 bytes @ 0x20000000)
T1710 1676:528.991   CPU_WriteMem(4 bytes @ 0x20000000)
T1710 1676:529.991   CPU_ReadMem(2 bytes @ 0x20000000)
T1710 1676:530.571 - 4.672ms returns 0x00000001
T1710 1676:530.585 JLINK_Go()
T1710 1676:530.593   CPU_WriteMem(2 bytes @ 0x20000000)
T1710 1676:531.573   CPU_ReadMem(4 bytes @ 0xE0001000)
T1710 1676:532.571   CPU_WriteMem(4 bytes @ 0xE0002008)
T1710 1676:532.581   CPU_WriteMem(4 bytes @ 0xE000200C)
T1710 1676:532.590   CPU_WriteMem(4 bytes @ 0xE0002010)
T1710 1676:532.599   CPU_WriteMem(4 bytes @ 0xE0002014)
T1710 1676:532.607   CPU_WriteMem(4 bytes @ 0xE0002018)
T1710 1676:532.616   CPU_WriteMem(4 bytes @ 0xE000201C)
T1710 1676:536.568   CPU_WriteMem(4 bytes @ 0xE0001004)
T1710 1676:542.992 - 12.412ms
T1710 1676:543.005 JLINK_IsHalted()
T1710 1676:548.591   CPU_ReadMem(2 bytes @ 0x20000000)
T1710 1676:549.570 - 6.569ms returns TRUE
T1710 1676:549.582 JLINK_ReadReg(R15 (PC))
T1710 1676:549.589 - 0.010ms returns 0x20000000
T1710 1676:549.597 JLINK_ClrBPEx(BPHandle = 0x00000001)
T1710 1676:549.603 - 0.009ms returns 0x00
T1710 1676:549.611 JLINK_ReadReg(R0)
T1710 1676:549.617 - 0.008ms returns 0x00000000
T1710 1676:549.850 JLINK_WriteReg(R0, 0x08000000)
T1710 1676:549.859 - 0.012ms returns 0x00
T1710 1676:549.866 JLINK_WriteReg(R1, 0x01E84800)
T1710 1676:549.872 - 0.009ms returns 0x00
T1710 1676:549.879 JLINK_WriteReg(R2, 0x00000001)
T1710 1676:549.885 - 0.009ms returns 0x00
T1710 1676:549.892 JLINK_WriteReg(R3, 0x00000000)
T1710 1676:549.898 - 0.008ms returns 0x00
T1710 1676:549.905 JLINK_WriteReg(R4, 0x00000000)
T1710 1676:549.910 - 0.008ms returns 0x00
T1710 1676:549.917 JLINK_WriteReg(R5, 0x00000000)
T1710 1676:549.923 - 0.008ms returns 0x00
T1710 1676:549.929 JLINK_WriteReg(R6, 0x00000000)
T1710 1676:549.935 - 0.008ms returns 0x00
T1710 1676:549.942 JLINK_WriteReg(R7, 0x00000000)
T1710 1676:549.948 - 0.008ms returns 0x00
T1710 1676:549.954 JLINK_WriteReg(R8, 0x00000000)
T1710 1676:549.960 - 0.008ms returns 0x00
T1710 1676:549.966 JLINK_WriteReg(R9, 0x20000290)
T1710 1676:549.972 - 0.008ms returns 0x00
T1710 1676:549.979 JLINK_WriteReg(R10, 0x00000000)
T1710 1676:549.985 - 0.008ms returns 0x00
T1710 1676:549.991 JLINK_WriteReg(R11, 0x00000000)
T1710 1676:549.997 - 0.008ms returns 0x00
T1710 1676:550.004 JLINK_WriteReg(R12, 0x00000000)
T1710 1676:550.009 - 0.008ms returns 0x00
T1710 1676:550.016 JLINK_WriteReg(R13 (SP), 0x20001000)
T1710 1676:550.023 - 0.010ms returns 0x00
T1710 1676:550.030 JLINK_WriteReg(R14, 0x20000001)
T1710 1676:550.036 - 0.008ms returns 0x00
T1710 1676:550.043 JLINK_WriteReg(R15 (PC), 0x2000005A)
T1710 1676:550.049 - 0.009ms returns 0x00
T1710 1676:550.055 JLINK_WriteReg(XPSR, 0x01000000)
T1710 1676:550.061 - 0.008ms returns 0x00
T1710 1676:550.068 JLINK_WriteReg(MSP, 0x20001000)
T1710 1676:550.074 - 0.009ms returns 0x00
T1710 1676:550.081 JLINK_WriteReg(PSP, 0x20001000)
T1710 1676:550.087 - 0.008ms returns 0x00
T1710 1676:550.093 JLINK_WriteReg(CFBP, 0x00000000)
T1710 1676:550.099 - 0.008ms returns 0x00
T1710 1676:550.106   JLINK_SetBPEx(Addr = 0x20000000, Type = 0xFFFFFFF2)
T1710 1676:550.115 - 0.012ms returns 0x00000002
T1710 1676:550.122 JLINK_Go()
T1710 1676:550.131   CPU_ReadMem(4 bytes @ 0xE0001000)
T1710 1676:556.568 - 6.451ms
T1710 1676:556.578 JLINK_IsHalted()
T1710 1676:557.569 - 1.040ms returns FALSE
T1710 1676:567.577 JLINK_IsHalted()
T1710 1676:568.589 - 1.021ms returns FALSE
T1710 1676:570.559 JLINK_IsHalted()
T1710 1676:571.570 - 1.015ms returns FALSE
T1710 1676:573.574 JLINK_IsHalted()
T1710 1676:574.568 - 0.998ms returns FALSE
T1710 1676:576.562 JLINK_IsHalted()
T1710 1676:577.569 - 1.010ms returns FALSE
T1710 1676:579.561 JLINK_IsHalted()
T1710 1676:585.596   CPU_ReadMem(2 bytes @ 0x20000000)
T1710 1676:586.571 - 7.015ms returns TRUE
T1710 1676:586.581 JLINK_ReadReg(R15 (PC))
T1710 1676:586.588 - 0.010ms returns 0x20000000
T1710 1676:586.595 JLINK_ClrBPEx(BPHandle = 0x00000002)
T1710 1676:586.601 - 0.009ms returns 0x00
T1710 1676:586.608 JLINK_ReadReg(R0)
T1710 1676:586.614 - 0.009ms returns 0x00000000
T1710 1676:637.473 JLINK_WriteReg(R0, 0x00000001)
T1710 1676:637.486 - 0.017ms returns 0x00
T1710 1676:637.495 JLINK_WriteReg(R1, 0x01E84800)
T1710 1676:637.502 - 0.011ms returns 0x00
T1710 1676:637.510 JLINK_WriteReg(R2, 0x00000001)
T1710 1676:637.517 - 0.010ms returns 0x00
T1710 1676:637.525 JLINK_WriteReg(R3, 0x00000000)
T1710 1676:637.532 - 0.010ms returns 0x00
T1710 1676:637.540 JLINK_WriteReg(R4, 0x00000000)
T1710 1676:637.547 - 0.010ms returns 0x00
T1710 1676:637.555 JLINK_WriteReg(R5, 0x00000000)
T1710 1676:637.562 - 0.010ms returns 0x00
T1710 1676:637.570 JLINK_WriteReg(R6, 0x00000000)
T1710 1676:637.577 - 0.010ms returns 0x00
T1710 1676:637.584 JLINK_WriteReg(R7, 0x00000000)
T1710 1676:637.591 - 0.010ms returns 0x00
T1710 1676:637.599 JLINK_WriteReg(R8, 0x00000000)
T1710 1676:637.606 - 0.010ms returns 0x00
T1710 1676:637.614 JLINK_WriteReg(R9, 0x20000290)
T1710 1676:637.621 - 0.010ms returns 0x00
T1710 1676:637.629 JLINK_WriteReg(R10, 0x00000000)
T1710 1676:637.636 - 0.010ms returns 0x00
T1710 1676:637.644 JLINK_WriteReg(R11, 0x00000000)
T1710 1676:637.651 - 0.010ms returns 0x00
T1710 1676:637.658 JLINK_WriteReg(R12, 0x00000000)
T1710 1676:637.665 - 0.010ms returns 0x00
T1710 1676:637.673 JLINK_WriteReg(R13 (SP), 0x20001000)
T1710 1676:637.680 - 0.010ms returns 0x00
T1710 1676:637.688 JLINK_WriteReg(R14, 0x20000001)
T1710 1676:637.695 - 0.010ms returns 0x00
T1710 1676:637.703 JLINK_WriteReg(R15 (PC), 0x2000004C)
T1710 1676:637.710 - 0.010ms returns 0x00
T1710 1676:637.718 JLINK_WriteReg(XPSR, 0x01000000)
T1710 1676:637.725 - 0.010ms returns 0x00
T1710 1676:637.733 JLINK_WriteReg(MSP, 0x20001000)
T1710 1676:637.740 - 0.010ms returns 0x00
T1710 1676:637.748 JLINK_WriteReg(PSP, 0x20001000)
T1710 1676:637.755 - 0.010ms returns 0x00
T1710 1676:637.763 JLINK_WriteReg(CFBP, 0x00000000)
T1710 1676:637.770 - 0.010ms returns 0x00
T1710 1676:637.778   JLINK_SetBPEx(Addr = 0x20000000, Type = 0xFFFFFFF2)
T1710 1676:637.789 - 0.014ms returns 0x00000003
T1710 1676:637.797 JLINK_Go()
T1710 1676:637.809   CPU_ReadMem(4 bytes @ 0xE0001000)
T1710 1676:644.570 - 6.781ms
T1710 1676:644.584 JLINK_IsHalted()
T1710 1676:650.586   CPU_ReadMem(2 bytes @ 0x20000000)
T1710 1676:651.561 - 6.982ms returns TRUE
T1710 1676:651.574 JLINK_ReadReg(R15 (PC))
T1710 1676:651.582 - 0.012ms returns 0x20000000
T1710 1676:651.591 JLINK_ClrBPEx(BPHandle = 0x00000003)
T1710 1676:651.599 - 0.011ms returns 0x00
T1710 1676:651.607 JLINK_ReadReg(R0)
T1710 1676:651.615 - 0.010ms returns 0x00000000
T1710 1676:656.258 JLINK_WriteMem(0x20000000, 0x0294 Bytes, ...)
T1710 1676:656.268   Data:  00 BE 0A E0 0D 78 2D 06 68 40 08 24 40 00 00 D3 ...
T1710 1676:656.282   CPU_WriteMem(660 bytes @ 0x20000000)
T1710 1676:663.992 - 7.739ms returns 0x294
T1710 1676:664.019 JLINK_WriteReg(R0, 0x08000000)
T1710 1676:664.027 - 0.012ms returns 0x00
T1710 1676:664.035 JLINK_WriteReg(R1, 0x01E84800)
T1710 1676:664.042 - 0.010ms returns 0x00
T1710 1676:664.050 JLINK_WriteReg(R2, 0x00000002)
T1710 1676:664.057 - 0.010ms returns 0x00
T1710 1676:664.064 JLINK_WriteReg(R3, 0x00000000)
T1710 1676:664.071 - 0.010ms returns 0x00
T1710 1676:664.079 JLINK_WriteReg(R4, 0x00000000)
T1710 1676:664.086 - 0.010ms returns 0x00
T1710 1676:664.094 JLINK_WriteReg(R5, 0x00000000)
T1710 1676:664.104 - 0.016ms returns 0x00
T1710 1676:664.114 JLINK_WriteReg(R6, 0x00000000)
T1710 1676:664.121 - 0.010ms returns 0x00
T1710 1676:664.129 JLINK_WriteReg(R7, 0x00000000)
T1710 1676:664.136 - 0.010ms returns 0x00
T1710 1676:664.143 JLINK_WriteReg(R8, 0x00000000)
T1710 1676:664.150 - 0.010ms returns 0x00
T1710 1676:664.158 JLINK_WriteReg(R9, 0x20000290)
T1710 1676:664.165 - 0.010ms returns 0x00
T1710 1676:664.172 JLINK_WriteReg(R10, 0x00000000)
T1710 1676:664.179 - 0.010ms returns 0x00
T1710 1676:664.187 JLINK_WriteReg(R11, 0x00000000)
T1710 1676:664.194 - 0.010ms returns 0x00
T1710 1676:664.201 JLINK_WriteReg(R12, 0x00000000)
T1710 1676:664.208 - 0.010ms returns 0x00
T1710 1676:664.216 JLINK_WriteReg(R13 (SP), 0x20001000)
T1710 1676:664.223 - 0.010ms returns 0x00
T1710 1676:664.231 JLINK_WriteReg(R14, 0x20000001)
T1710 1676:664.238 - 0.010ms returns 0x00
T1710 1676:664.245 JLINK_WriteReg(R15 (PC), 0x20000038)
T1710 1676:664.252 - 0.010ms returns 0x00
T1710 1676:664.260 JLINK_WriteReg(XPSR, 0x01000000)
T1710 1676:664.267 - 0.010ms returns 0x00
T1710 1676:664.274 JLINK_WriteReg(MSP, 0x20001000)
T1710 1676:664.281 - 0.010ms returns 0x00
T1710 1676:664.289 JLINK_WriteReg(PSP, 0x20001000)
T1710 1676:664.296 - 0.010ms returns 0x00
T1710 1676:664.303 JLINK_WriteReg(CFBP, 0x00000000)
T1710 1676:664.310 - 0.010ms returns 0x00
T1710 1676:664.318   JLINK_SetBPEx(Addr = 0x20000000, Type = 0xFFFFFFF2)
T1710 1676:664.330   CPU_ReadMem(4 bytes @ 0x20000000)
T1710 1676:664.993   CPU_WriteMem(4 bytes @ 0x20000000)
T1710 1676:665.988   CPU_ReadMem(4 bytes @ 0x20000000)
T1710 1676:666.991   CPU_WriteMem(4 bytes @ 0x20000000)
T1710 1676:667.988   CPU_ReadMem(2 bytes @ 0x20000000)
T1710 1676:668.995 - 4.682ms returns 0x00000004
T1710 1676:669.005 JLINK_Go()
T1710 1676:669.013   CPU_WriteMem(2 bytes @ 0x20000000)
T1710 1676:669.568   CPU_ReadMem(4 bytes @ 0xE0001000)
T1710 1676:676.567 - 7.568ms
T1710 1676:676.580 JLINK_IsHalted()
T1710 1676:682.586   CPU_ReadMem(2 bytes @ 0x20000000)
T1710 1676:683.569 - 6.993ms returns TRUE
T1710 1676:683.578 JLINK_ReadReg(R15 (PC))
T1710 1676:683.585 - 0.009ms returns 0x20000000
T1710 1676:683.593 JLINK_ClrBPEx(BPHandle = 0x00000004)
T1710 1676:683.599 - 0.009ms returns 0x00
T1710 1676:683.606 JLINK_ReadReg(R0)
T1710 1676:683.612 - 0.009ms returns 0x00000000
T1710 1676:683.806 JLINK_WriteMem(0x20000294, 0x016C Bytes, ...)
T1710 1676:683.815   Data:  08 14 00 20 D5 01 00 08 FB 2D 00 08 4B 2C 00 08 ...
T1710 1676:683.827   CPU_WriteMem(364 bytes @ 0x20000294)
T1710 1676:688.570 - 4.772ms returns 0x16C
T1710 1676:688.585 JLINK_WriteMem(0x20000400, 0x0294 Bytes, ...)
T1710 1676:688.593   Data:  90 6E 00 00 B0 6E 00 00 10 3A 24 BF 78 C8 78 C1 ...
T1710 1676:688.608   CPU_WriteMem(660 bytes @ 0x20000400)
T1710 1676:695.989 - 7.409ms returns 0x294
T1710 1676:696.001 JLINK_WriteReg(R0, 0x08000000)
T1710 1676:696.009 - 0.011ms returns 0x00
T1710 1676:696.017 JLINK_WriteReg(R1, 0x00000400)
T1710 1676:696.024 - 0.010ms returns 0x00
T1710 1676:696.032 JLINK_WriteReg(R2, 0x20000294)
T1710 1676:696.039 - 0.010ms returns 0x00
T1710 1676:696.047 JLINK_WriteReg(R3, 0x00000000)
T1710 1676:696.054 - 0.010ms returns 0x00
T1710 1676:696.061 JLINK_WriteReg(R4, 0x00000000)
T1710 1676:696.069 - 0.010ms returns 0x00
T1710 1676:696.076 JLINK_WriteReg(R5, 0x00000000)
T1710 1676:696.083 - 0.010ms returns 0x00
T1710 1676:696.091 JLINK_WriteReg(R6, 0x00000000)
T1710 1676:696.098 - 0.010ms returns 0x00
T1710 1676:696.105 JLINK_WriteReg(R7, 0x00000000)
T1710 1676:696.112 - 0.010ms returns 0x00
T1710 1676:696.120 JLINK_WriteReg(R8, 0x00000000)
T1710 1676:696.126 - 0.010ms returns 0x00
T1710 1676:696.134 JLINK_WriteReg(R9, 0x20000290)
T1710 1676:696.141 - 0.010ms returns 0x00
T1710 1676:696.148 JLINK_WriteReg(R10, 0x00000000)
T1710 1676:696.155 - 0.010ms returns 0x00
T1710 1676:696.163 JLINK_WriteReg(R11, 0x00000000)
T1710 1676:696.170 - 0.010ms returns 0x00
T1710 1676:696.178 JLINK_WriteReg(R12, 0x00000000)
T1710 1676:696.184 - 0.010ms returns 0x00
T1710 1676:696.194 JLINK_WriteReg(R13 (SP), 0x20001000)
T1710 1676:696.203 - 0.012ms returns 0x00
T1710 1676:696.211 JLINK_WriteReg(R14, 0x20000001)
T1710 1676:696.218 - 0.010ms returns 0x00
T1710 1676:696.225 JLINK_WriteReg(R15 (PC), 0x2000013E)
T1710 1676:696.232 - 0.010ms returns 0x00
T1710 1676:696.240 JLINK_WriteReg(XPSR, 0x01000000)
T1710 1676:696.247 - 0.010ms returns 0x00
T1710 1676:696.255 JLINK_WriteReg(MSP, 0x20001000)
T1710 1676:696.261 - 0.010ms returns 0x00
T1710 1676:696.269 JLINK_WriteReg(PSP, 0x20001000)
T1710 1676:696.276 - 0.010ms returns 0x00
T1710 1676:696.284 JLINK_WriteReg(CFBP, 0x00000000)
T1710 1676:696.290 - 0.010ms returns 0x00
T1710 1676:696.299   JLINK_SetBPEx(Addr = 0x20000000, Type = 0xFFFFFFF2)
T1710 1676:696.309 - 0.014ms returns 0x00000005
T1710 1676:696.317 JLINK_Go()
T1710 1676:696.328   CPU_ReadMem(4 bytes @ 0xE0001000)
T1710 1676:702.568 - 6.256ms
T1710 1676:702.578 JLINK_IsHalted()
T1710 1676:703.567 - 0.992ms returns FALSE
T1710 1676:706.571 JLINK_IsHalted()
T1710 1676:707.571 - 1.009ms returns FALSE
T1710 1676:709.571 JLINK_IsHalted()
T1710 1676:710.455 - 0.887ms returns FALSE
T1710 1676:712.458 JLINK_IsHalted()
T1710 1676:713.567 - 1.112ms returns FALSE
T1710 1676:715.570 JLINK_IsHalted()
T1710 1676:721.009   CPU_ReadMem(2 bytes @ 0x20000000)
T1710 1676:721.570 - 6.004ms returns TRUE
T1710 1676:721.580 JLINK_ReadReg(R15 (PC))
T1710 1676:721.588 - 0.011ms returns 0x20000000
T1710 1676:721.596 JLINK_ClrBPEx(BPHandle = 0x00000005)
T1710 1676:721.604 - 0.010ms returns 0x00
T1710 1676:721.611 JLINK_ReadReg(R0)
T1710 1676:721.618 - 0.010ms returns 0x00000000
T1710 1676:722.024 JLINK_WriteMem(0x20000294, 0x016C Bytes, ...)
T1710 1676:722.035   Data:  04 02 98 BF 00 F8 01 CB 38 BF 00 F8 01 3B 11 F0 ...
T1710 1676:722.049   CPU_WriteMem(364 bytes @ 0x20000294)
T1710 1676:726.988 - 4.969ms returns 0x16C
T1710 1676:726.999 JLINK_WriteMem(0x20000400, 0x0294 Bytes, ...)
T1710 1676:727.006   Data:  BD E8 10 40 FF F7 29 BE 00 48 70 47 30 00 00 20 ...
T1710 1676:727.018   CPU_WriteMem(660 bytes @ 0x20000400)
T1710 1676:734.570 - 7.579ms returns 0x294
T1710 1676:734.587 JLINK_WriteReg(R0, 0x08000400)
T1710 1676:734.596 - 0.012ms returns 0x00
T1710 1676:734.605 JLINK_WriteReg(R1, 0x00000400)
T1710 1676:734.612 - 0.010ms returns 0x00
T1710 1676:734.621 JLINK_WriteReg(R2, 0x20000294)
T1710 1676:734.628 - 0.010ms returns 0x00
T1710 1676:734.636 JLINK_WriteReg(R3, 0x00000000)
T1710 1676:734.643 - 0.010ms returns 0x00
T1710 1676:734.652 JLINK_WriteReg(R4, 0x00000000)
T1710 1676:734.659 - 0.010ms returns 0x00
T1710 1676:734.667 JLINK_WriteReg(R5, 0x00000000)
T1710 1676:734.674 - 0.010ms returns 0x00
T1710 1676:734.682 JLINK_WriteReg(R6, 0x00000000)
T1710 1676:734.689 - 0.010ms returns 0x00
T1710 1676:734.698 JLINK_WriteReg(R7, 0x00000000)
T1710 1676:734.705 - 0.010ms returns 0x00
T1710 1676:734.713 JLINK_WriteReg(R8, 0x00000000)
T1710 1676:734.720 - 0.010ms returns 0x00
T1710 1676:734.729 JLINK_WriteReg(R9, 0x20000290)
T1710 1676:734.736 - 0.010ms returns 0x00
T1710 1676:734.744 JLINK_WriteReg(R10, 0x00000000)
T1710 1676:734.751 - 0.010ms returns 0x00
T1710 1676:734.760 JLINK_WriteReg(R11, 0x00000000)
T1710 1676:734.767 - 0.010ms returns 0x00
T1710 1676:734.775 JLINK_WriteReg(R12, 0x00000000)
T1710 1676:734.782 - 0.010ms returns 0x00
T1710 1676:734.791 JLINK_WriteReg(R13 (SP), 0x20001000)
T1710 1676:734.798 - 0.010ms returns 0x00
T1710 1676:734.806 JLINK_WriteReg(R14, 0x20000001)
T1710 1676:734.814 - 0.010ms returns 0x00
T1710 1676:734.822 JLINK_WriteReg(R15 (PC), 0x2000013E)
T1710 1676:734.829 - 0.010ms returns 0x00
T1710 1676:734.838 JLINK_WriteReg(XPSR, 0x01000000)
T1710 1676:734.845 - 0.010ms returns 0x00
T1710 1676:734.853 JLINK_WriteReg(MSP, 0x20001000)
T1710 1676:734.861 - 0.010ms returns 0x00
T1710 1676:734.869 JLINK_WriteReg(PSP, 0x20001000)
T1710 1676:734.876 - 0.010ms returns 0x00
T1710 1676:734.886 JLINK_WriteReg(CFBP, 0x00000000)
T1710 1676:734.893 - 0.011ms returns 0x00
T1710 1676:734.903   JLINK_SetBPEx(Addr = 0x20000000, Type = 0xFFFFFFF2)
T1710 1676:734.918 - 0.019ms returns 0x00000006
T1710 1676:734.927 JLINK_Go()
T1710 1676:734.939   CPU_ReadMem(4 bytes @ 0xE0001000)
T1710 1676:741.568 - 6.647ms
T1710 1676:741.580 JLINK_IsHalted()
T1710 1676:742.455 - 0.879ms returns FALSE
T1710 1676:744.457 JLINK_IsHalted()
T1710 1676:745.567 - 1.114ms returns FALSE
T1710 1676:747.570 JLINK_IsHalted()
T1710 1676:748.586 - 1.029ms returns FALSE
T1710 1676:750.581 JLINK_IsHalted()
T1710 1676:751.569 - 0.995ms returns FALSE
T1710 1676:753.481 JLINK_IsHalted()
T1710 1676:753.987 - 0.510ms returns FALSE
T1710 1676:755.483 JLINK_IsHalted()
T1710 1676:761.005   CPU_ReadMem(2 bytes @ 0x20000000)
T1710 1676:761.570 - 6.091ms returns TRUE
T1710 1676:761.580 JLINK_ReadReg(R15 (PC))
T1710 1676:761.587 - 0.012ms returns 0x20000000
T1710 1676:761.596 JLINK_ClrBPEx(BPHandle = 0x00000006)
T1710 1676:761.604 - 0.010ms returns 0x00
T1710 1676:761.612 JLINK_ReadReg(R0)
T1710 1676:761.619 - 0.010ms returns 0x00000000
T1710 1676:762.032 JLINK_WriteMem(0x20000294, 0x016C Bytes, ...)
T1710 1676:762.043   Data:  01 02 B1 FB F3 F1 28 BF 07 31 01 F0 1F 01 02 FA ...
T1710 1676:762.057   CPU_WriteMem(364 bytes @ 0x20000294)
T1710 1676:766.561 - 4.536ms returns 0x16C
T1710 1676:766.577 JLINK_WriteMem(0x20000400, 0x0294 Bytes, ...)
T1710 1676:766.585   Data:  02 E0 04 21 01 64 01 21 08 46 70 47 B0 B5 04 46 ...
T1710 1676:766.599   CPU_WriteMem(660 bytes @ 0x20000400)
T1710 1676:773.980 - 7.410ms returns 0x294
T1710 1676:773.997 JLINK_WriteReg(R0, 0x08000800)
T1710 1676:774.006 - 0.012ms returns 0x00
T1710 1676:774.015 JLINK_WriteReg(R1, 0x00000400)
T1710 1676:774.022 - 0.010ms returns 0x00
T1710 1676:774.031 JLINK_WriteReg(R2, 0x20000294)
T1710 1676:774.038 - 0.010ms returns 0x00
T1710 1676:774.047 JLINK_WriteReg(R3, 0x00000000)
T1710 1676:774.054 - 0.011ms returns 0x00
T1710 1676:774.063 JLINK_WriteReg(R4, 0x00000000)
T1710 1676:774.070 - 0.010ms returns 0x00
T1710 1676:774.079 JLINK_WriteReg(R5, 0x00000000)
T1710 1676:774.086 - 0.010ms returns 0x00
T1710 1676:774.094 JLINK_WriteReg(R6, 0x00000000)
T1710 1676:774.101 - 0.010ms returns 0x00
T1710 1676:774.110 JLINK_WriteReg(R7, 0x00000000)
T1710 1676:774.117 - 0.010ms returns 0x00
T1710 1676:774.126 JLINK_WriteReg(R8, 0x00000000)
T1710 1676:774.133 - 0.010ms returns 0x00
T1710 1676:774.142 JLINK_WriteReg(R9, 0x20000290)
T1710 1676:774.149 - 0.010ms returns 0x00
T1710 1676:774.157 JLINK_WriteReg(R10, 0x00000000)
T1710 1676:774.165 - 0.010ms returns 0x00
T1710 1676:774.173 JLINK_WriteReg(R11, 0x00000000)
T1710 1676:774.181 - 0.010ms returns 0x00
T1710 1676:774.189 JLINK_WriteReg(R12, 0x00000000)
T1710 1676:774.196 - 0.010ms returns 0x00
T1710 1676:774.205 JLINK_WriteReg(R13 (SP), 0x20001000)
T1710 1676:774.212 - 0.011ms returns 0x00
T1710 1676:774.221 JLINK_WriteReg(R14, 0x20000001)
T1710 1676:774.228 - 0.010ms returns 0x00
T1710 1676:774.237 JLINK_WriteReg(R15 (PC), 0x2000013E)
T1710 1676:774.244 - 0.010ms returns 0x00
T1710 1676:774.252 JLINK_WriteReg(XPSR, 0x01000000)
T1710 1676:774.260 - 0.010ms returns 0x00
T1710 1676:774.268 JLINK_WriteReg(MSP, 0x20001000)
T1710 1676:774.275 - 0.010ms returns 0x00
T1710 1676:774.284 JLINK_WriteReg(PSP, 0x20001000)
T1710 1676:774.291 - 0.010ms returns 0x00
T1710 1676:774.300 JLINK_WriteReg(CFBP, 0x00000000)
T1710 1676:774.307 - 0.010ms returns 0x00
T1710 1676:774.316   JLINK_SetBPEx(Addr = 0x20000000, Type = 0xFFFFFFF2)
T1710 1676:774.327 - 0.014ms returns 0x00000007
T1710 1676:774.336 JLINK_Go()
T1710 1676:774.348   CPU_ReadMem(4 bytes @ 0xE0001000)
T1710 1676:780.568 - 6.239ms
T1710 1676:780.582 JLINK_IsHalted()
T1710 1676:781.607 - 1.033ms returns FALSE
T1710 1676:784.582 JLINK_IsHalted()
T1710 1676:785.561 - 0.984ms returns FALSE
T1710 1676:787.553 JLINK_IsHalted()
T1710 1676:787.977 - 0.429ms returns FALSE
T1710 1676:789.970 JLINK_IsHalted()
T1710 1676:790.442 - 0.476ms returns FALSE
T1710 1676:791.970 JLINK_IsHalted()
T1710 1676:792.555 - 0.589ms returns FALSE
T1710 1676:794.549 JLINK_IsHalted()
T1710 1676:799.994   CPU_ReadMem(2 bytes @ 0x20000000)
T1710 1676:800.979 - 6.436ms returns TRUE
T1710 1676:800.992 JLINK_ReadReg(R15 (PC))
T1710 1676:800.999 - 0.010ms returns 0x20000000
T1710 1676:801.006 JLINK_ClrBPEx(BPHandle = 0x00000007)
T1710 1676:801.012 - 0.009ms returns 0x00
T1710 1676:801.019 JLINK_ReadReg(R0)
T1710 1676:801.025 - 0.008ms returns 0x00000000
T1710 1676:801.377 JLINK_WriteMem(0x20000294, 0x016C Bytes, ...)
T1710 1676:801.386   Data:  04 F0 8E BC 00 28 0E BF 01 20 01 60 00 20 70 47 ...
T1710 1676:801.398   CPU_WriteMem(364 bytes @ 0x20000294)
T1710 1676:805.978 - 4.607ms returns 0x16C
T1710 1676:805.991 JLINK_WriteMem(0x20000400, 0x0294 Bytes, ...)
T1710 1676:805.998   Data:  00 00 00 00 42 55 54 54 4F 4E 20 53 57 32 0D 0A ...
T1710 1676:806.012   CPU_WriteMem(660 bytes @ 0x20000400)
T1710 1676:813.560 - 7.577ms returns 0x294
T1710 1676:813.578 JLINK_WriteReg(R0, 0x08000C00)
T1710 1676:813.586 - 0.012ms returns 0x00
T1710 1676:813.595 JLINK_WriteReg(R1, 0x00000400)
T1710 1676:813.602 - 0.010ms returns 0x00
T1710 1676:813.611 JLINK_WriteReg(R2, 0x20000294)
T1710 1676:813.618 - 0.010ms returns 0x00
T1710 1676:813.626 JLINK_WriteReg(R3, 0x00000000)
T1710 1676:813.633 - 0.010ms returns 0x00
T1710 1676:813.642 JLINK_WriteReg(R4, 0x00000000)
T1710 1676:813.649 - 0.010ms returns 0x00
T1710 1676:813.657 JLINK_WriteReg(R5, 0x00000000)
T1710 1676:813.664 - 0.010ms returns 0x00
T1710 1676:813.673 JLINK_WriteReg(R6, 0x00000000)
T1710 1676:813.680 - 0.010ms returns 0x00
T1710 1676:813.688 JLINK_WriteReg(R7, 0x00000000)
T1710 1676:813.695 - 0.010ms returns 0x00
T1710 1676:813.703 JLINK_WriteReg(R8, 0x00000000)
T1710 1676:813.710 - 0.010ms returns 0x00
T1710 1676:813.719 JLINK_WriteReg(R9, 0x20000290)
T1710 1676:813.726 - 0.010ms returns 0x00
T1710 1676:813.734 JLINK_WriteReg(R10, 0x00000000)
T1710 1676:813.741 - 0.010ms returns 0x00
T1710 1676:813.749 JLINK_WriteReg(R11, 0x00000000)
T1710 1676:813.756 - 0.010ms returns 0x00
T1710 1676:813.765 JLINK_WriteReg(R12, 0x00000000)
T1710 1676:813.772 - 0.010ms returns 0x00
T1710 1676:813.780 JLINK_WriteReg(R13 (SP), 0x20001000)
T1710 1676:813.788 - 0.010ms returns 0x00
T1710 1676:813.796 JLINK_WriteReg(R14, 0x20000001)
T1710 1676:813.803 - 0.010ms returns 0x00
T1710 1676:813.811 JLINK_WriteReg(R15 (PC), 0x2000013E)
T1710 1676:813.819 - 0.010ms returns 0x00
T1710 1676:813.827 JLINK_WriteReg(XPSR, 0x01000000)
T1710 1676:813.834 - 0.010ms returns 0x00
T1710 1676:813.842 JLINK_WriteReg(MSP, 0x20001000)
T1710 1676:813.849 - 0.010ms returns 0x00
T1710 1676:813.858 JLINK_WriteReg(PSP, 0x20001000)
T1710 1676:813.865 - 0.010ms returns 0x00
T1710 1676:813.873 JLINK_WriteReg(CFBP, 0x00000000)
T1710 1676:813.881 - 0.010ms returns 0x00
T1710 1676:813.890   JLINK_SetBPEx(Addr = 0x20000000, Type = 0xFFFFFFF2)
T1710 1676:813.900 - 0.014ms returns 0x00000008
T1710 1676:813.909 JLINK_Go()
T1710 1676:813.920   CPU_ReadMem(4 bytes @ 0xE0001000)
T1710 1676:820.556 - 6.652ms
T1710 1676:820.566 JLINK_IsHalted()
T1710 1676:821.555 - 0.992ms returns FALSE
T1710 1676:823.549 JLINK_IsHalted()
T1710 1676:823.977 - 0.435ms returns FALSE
T1710 1676:825.970 JLINK_IsHalted()
T1710 1676:826.975 - 1.009ms returns FALSE
T1710 1676:828.970 JLINK_IsHalted()
T1710 1676:829.556 - 0.591ms returns FALSE
T1710 1676:831.549 JLINK_IsHalted()
T1710 1676:831.976 - 0.431ms returns FALSE
T1710 1676:833.552 JLINK_IsHalted()
T1710 1676:838.574   CPU_ReadMem(2 bytes @ 0x20000000)
T1710 1676:839.559 - 6.010ms returns TRUE
T1710 1676:839.568 JLINK_ReadReg(R15 (PC))
T1710 1676:839.576 - 0.011ms returns 0x20000000
T1710 1676:839.584 JLINK_ClrBPEx(BPHandle = 0x00000008)
T1710 1676:839.591 - 0.010ms returns 0x00
T1710 1676:839.599 JLINK_ReadReg(R0)
T1710 1676:839.606 - 0.010ms returns 0x00000000
T1710 1676:839.958 JLINK_WriteMem(0x20000294, 0x016C Bytes, ...)
T1710 1676:839.967   Data:  04 20 05 FA 00 F0 01 38 08 40 05 FA 04 F1 0F 31 ...
T1710 1676:839.979   CPU_WriteMem(364 bytes @ 0x20000294)
T1710 1676:844.978 - 5.027ms returns 0x16C
T1710 1676:844.994 JLINK_WriteMem(0x20000400, 0x0294 Bytes, ...)
T1710 1676:845.003   Data:  22 F4 80 32 C6 F8 84 20 21 F4 40 72 01 46 C6 F8 ...
T1710 1676:845.017   CPU_WriteMem(660 bytes @ 0x20000400)
T1710 1676:852.559 - 7.570ms returns 0x294
T1710 1676:852.573 JLINK_WriteReg(R0, 0x08001000)
T1710 1676:852.581 - 0.012ms returns 0x00
T1710 1676:852.590 JLINK_WriteReg(R1, 0x00000400)
T1710 1676:852.598 - 0.010ms returns 0x00
T1710 1676:852.606 JLINK_WriteReg(R2, 0x20000294)
T1710 1676:852.613 - 0.010ms returns 0x00
T1710 1676:852.622 JLINK_WriteReg(R3, 0x00000000)
T1710 1676:852.629 - 0.010ms returns 0x00
T1710 1676:852.638 JLINK_WriteReg(R4, 0x00000000)
T1710 1676:852.645 - 0.010ms returns 0x00
T1710 1676:852.653 JLINK_WriteReg(R5, 0x00000000)
T1710 1676:852.661 - 0.010ms returns 0x00
T1710 1676:852.669 JLINK_WriteReg(R6, 0x00000000)
T1710 1676:852.676 - 0.010ms returns 0x00
T1710 1676:852.685 JLINK_WriteReg(R7, 0x00000000)
T1710 1676:852.692 - 0.010ms returns 0x00
T1710 1676:852.700 JLINK_WriteReg(R8, 0x00000000)
T1710 1676:852.708 - 0.010ms returns 0x00
T1710 1676:852.716 JLINK_WriteReg(R9, 0x20000290)
T1710 1676:852.723 - 0.010ms returns 0x00
T1710 1676:852.732 JLINK_WriteReg(R10, 0x00000000)
T1710 1676:852.739 - 0.010ms returns 0x00
T1710 1676:852.748 JLINK_WriteReg(R11, 0x00000000)
T1710 1676:852.755 - 0.010ms returns 0x00
T1710 1676:852.763 JLINK_WriteReg(R12, 0x00000000)
T1710 1676:852.771 - 0.010ms returns 0x00
T1710 1676:852.779 JLINK_WriteReg(R13 (SP), 0x20001000)
T1710 1676:852.787 - 0.011ms returns 0x00
T1710 1676:852.795 JLINK_WriteReg(R14, 0x20000001)
T1710 1676:852.802 - 0.010ms returns 0x00
T1710 1676:852.811 JLINK_WriteReg(R15 (PC), 0x2000013E)
T1710 1676:852.818 - 0.010ms returns 0x00
T1710 1676:852.827 JLINK_WriteReg(XPSR, 0x01000000)
T1710 1676:852.834 - 0.010ms returns 0x00
T1710 1676:852.842 JLINK_WriteReg(MSP, 0x20001000)
T1710 1676:852.850 - 0.010ms returns 0x00
T1710 1676:852.858 JLINK_WriteReg(PSP, 0x20001000)
T1710 1676:852.865 - 0.010ms returns 0x00
T1710 1676:852.874 JLINK_WriteReg(CFBP, 0x00000000)
T1710 1676:852.881 - 0.010ms returns 0x00
T1710 1676:852.890   JLINK_SetBPEx(Addr = 0x20000000, Type = 0xFFFFFFF2)
T1710 1676:852.901 - 0.014ms returns 0x00000009
T1710 1676:852.909 JLINK_Go()
T1710 1676:852.921   CPU_ReadMem(4 bytes @ 0xE0001000)
T1710 1676:859.558 - 6.656ms
T1710 1676:859.573 JLINK_IsHalted()
T1710 1676:860.556 - 0.987ms returns FALSE
T1710 1676:862.551 JLINK_IsHalted()
T1710 1676:863.557 - 1.010ms returns FALSE
T1710 1676:865.551 JLINK_IsHalted()
T1710 1676:865.976 - 0.429ms returns FALSE
T1710 1676:867.551 JLINK_IsHalted()
T1710 1676:867.976 - 0.430ms returns FALSE
T1710 1676:869.551 JLINK_IsHalted()
T1710 1676:870.443 - 0.896ms returns FALSE
T1710 1676:872.435 JLINK_IsHalted()
T1710 1676:878.574   CPU_ReadMem(2 bytes @ 0x20000000)
T1710 1676:880.979 - 8.548ms returns TRUE
T1710 1676:880.990 JLINK_ReadReg(R15 (PC))
T1710 1676:880.998 - 0.011ms returns 0x20000000
T1710 1676:881.006 JLINK_ClrBPEx(BPHandle = 0x00000009)
T1710 1676:881.013 - 0.010ms returns 0x00
T1710 1676:881.021 JLINK_ReadReg(R0)
T1710 1676:881.028 - 0.010ms returns 0x00000000
T1710 1676:881.443 JLINK_WriteMem(0x20000294, 0x016C Bytes, ...)
T1710 1676:881.454   Data:  41 F2 88 38 38 68 69 68 00 F0 0C 00 B0 EB 81 0F ...
T1710 1676:881.468   CPU_WriteMem(364 bytes @ 0x20000294)
T1710 1676:885.977 - 4.540ms returns 0x16C
T1710 1676:885.990 JLINK_WriteMem(0x20000400, 0x0294 Bytes, ...)
T1710 1676:885.997   Data:  00 20 01 E0 00 20 00 22 51 F8 04 3C 03 F0 0C 03 ...
T1710 1676:886.010   CPU_WriteMem(660 bytes @ 0x20000400)
T1710 1676:893.557 - 7.575ms returns 0x294
T1710 1676:893.574 JLINK_WriteReg(R0, 0x08001400)
T1710 1676:893.583 - 0.012ms returns 0x00
T1710 1676:893.592 JLINK_WriteReg(R1, 0x00000400)
T1710 1676:893.599 - 0.010ms returns 0x00
T1710 1676:893.608 JLINK_WriteReg(R2, 0x20000294)
T1710 1676:893.615 - 0.010ms returns 0x00
T1710 1676:893.624 JLINK_WriteReg(R3, 0x00000000)
T1710 1676:893.631 - 0.010ms returns 0x00
T1710 1676:893.642 JLINK_WriteReg(R4, 0x00000000)
T1710 1676:893.651 - 0.012ms returns 0x00
T1710 1676:893.659 JLINK_WriteReg(R5, 0x00000000)
T1710 1676:893.667 - 0.010ms returns 0x00
T1710 1676:893.676 JLINK_WriteReg(R6, 0x00000000)
T1710 1676:893.683 - 0.010ms returns 0x00
T1710 1676:893.691 JLINK_WriteReg(R7, 0x00000000)
T1710 1676:893.698 - 0.010ms returns 0x00
T1710 1676:893.707 JLINK_WriteReg(R8, 0x00000000)
T1710 1676:893.714 - 0.010ms returns 0x00
T1710 1676:893.723 JLINK_WriteReg(R9, 0x20000290)
T1710 1676:893.730 - 0.010ms returns 0x00
T1710 1676:893.738 JLINK_WriteReg(R10, 0x00000000)
T1710 1676:893.746 - 0.010ms returns 0x00
T1710 1676:893.754 JLINK_WriteReg(R11, 0x00000000)
T1710 1676:893.761 - 0.010ms returns 0x00
T1710 1676:893.770 JLINK_WriteReg(R12, 0x00000000)
T1710 1676:893.777 - 0.010ms returns 0x00
T1710 1676:893.786 JLINK_WriteReg(R13 (SP), 0x20001000)
T1710 1676:893.793 - 0.011ms returns 0x00
T1710 1676:893.802 JLINK_WriteReg(R14, 0x20000001)
T1710 1676:893.809 - 0.010ms returns 0x00
T1710 1676:893.818 JLINK_WriteReg(R15 (PC), 0x2000013E)
T1710 1676:893.825 - 0.010ms returns 0x00
T1710 1676:893.833 JLINK_WriteReg(XPSR, 0x01000000)
T1710 1676:893.841 - 0.010ms returns 0x00
T1710 1676:893.849 JLINK_WriteReg(MSP, 0x20001000)
T1710 1676:893.856 - 0.010ms returns 0x00
T1710 1676:893.865 JLINK_WriteReg(PSP, 0x20001000)
T1710 1676:893.872 - 0.010ms returns 0x00
T1710 1676:893.881 JLINK_WriteReg(CFBP, 0x00000000)
T1710 1676:893.888 - 0.010ms returns 0x00
T1710 1676:893.897   JLINK_SetBPEx(Addr = 0x20000000, Type = 0xFFFFFFF2)
T1710 1676:893.908 - 0.014ms returns 0x0000000A
T1710 1676:893.916 JLINK_Go()
T1710 1676:893.928   CPU_ReadMem(4 bytes @ 0xE0001000)
T1710 1676:900.557 - 6.645ms
T1710 1676:900.568 JLINK_IsHalted()
T1710 1676:901.556 - 0.991ms returns FALSE
T1710 1676:903.474 JLINK_IsHalted()
T1710 1676:903.978 - 0.507ms returns FALSE
T1710 1676:905.971 JLINK_IsHalted()
T1710 1676:906.978 - 1.015ms returns FALSE
T1710 1676:908.970 JLINK_IsHalted()
T1710 1676:909.555 - 0.589ms returns FALSE
T1710 1676:910.970 JLINK_IsHalted()
T1710 1676:911.556 - 0.590ms returns FALSE
T1710 1676:913.548 JLINK_IsHalted()
T1710 1676:918.678   CPU_ReadMem(2 bytes @ 0x20000000)
T1710 1676:919.557 - 6.013ms returns TRUE
T1710 1676:919.567 JLINK_ReadReg(R15 (PC))
T1710 1676:919.575 - 0.011ms returns 0x20000000
T1710 1676:919.583 JLINK_ClrBPEx(BPHandle = 0x0000000A)
T1710 1676:919.591 - 0.010ms returns 0x00
T1710 1676:919.599 JLINK_ReadReg(R0)
T1710 1676:919.606 - 0.010ms returns 0x00000000
T1710 1676:920.021 JLINK_WriteMem(0x20000294, 0x016C Bytes, ...)
T1710 1676:920.032   Data:  00 00 10 F4 00 3F 06 D0 FF F7 A6 FB 41 1B 03 20 ...
T1710 1676:920.046   CPU_WriteMem(364 bytes @ 0x20000294)
T1710 1676:924.978 - 4.964ms returns 0x16C
T1710 1676:924.991 JLINK_WriteMem(0x20000400, 0x0294 Bytes, ...)
T1710 1676:924.999   Data:  40 F0 01 00 C4 F8 8C 00 D4 F8 8C 00 10 F0 02 0F ...
T1710 1676:925.012   CPU_WriteMem(660 bytes @ 0x20000400)
T1710 1676:932.556 - 7.570ms returns 0x294
T1710 1676:932.569 JLINK_WriteReg(R0, 0x08001800)
T1710 1676:932.578 - 0.012ms returns 0x00
T1710 1676:932.587 JLINK_WriteReg(R1, 0x00000400)
T1710 1676:932.594 - 0.010ms returns 0x00
T1710 1676:932.603 JLINK_WriteReg(R2, 0x20000294)
T1710 1676:932.610 - 0.010ms returns 0x00
T1710 1676:932.619 JLINK_WriteReg(R3, 0x00000000)
T1710 1676:932.626 - 0.010ms returns 0x00
T1710 1676:932.634 JLINK_WriteReg(R4, 0x00000000)
T1710 1676:932.641 - 0.010ms returns 0x00
T1710 1676:932.650 JLINK_WriteReg(R5, 0x00000000)
T1710 1676:932.657 - 0.010ms returns 0x00
T1710 1676:932.666 JLINK_WriteReg(R6, 0x00000000)
T1710 1676:932.673 - 0.010ms returns 0x00
T1710 1676:932.681 JLINK_WriteReg(R7, 0x00000000)
T1710 1676:932.688 - 0.010ms returns 0x00
T1710 1676:932.697 JLINK_WriteReg(R8, 0x00000000)
T1710 1676:932.704 - 0.010ms returns 0x00
T1710 1676:932.713 JLINK_WriteReg(R9, 0x20000290)
T1710 1676:932.720 - 0.010ms returns 0x00
T1710 1676:932.728 JLINK_WriteReg(R10, 0x00000000)
T1710 1676:932.738 - 0.014ms returns 0x00
T1710 1676:932.748 JLINK_WriteReg(R11, 0x00000000)
T1710 1676:932.755 - 0.010ms returns 0x00
T1710 1676:932.764 JLINK_WriteReg(R12, 0x00000000)
T1710 1676:932.771 - 0.010ms returns 0x00
T1710 1676:932.780 JLINK_WriteReg(R13 (SP), 0x20001000)
T1710 1676:932.787 - 0.011ms returns 0x00
T1710 1676:932.796 JLINK_WriteReg(R14, 0x20000001)
T1710 1676:932.803 - 0.010ms returns 0x00
T1710 1676:932.811 JLINK_WriteReg(R15 (PC), 0x2000013E)
T1710 1676:932.819 - 0.010ms returns 0x00
T1710 1676:932.827 JLINK_WriteReg(XPSR, 0x01000000)
T1710 1676:932.834 - 0.010ms returns 0x00
T1710 1676:932.843 JLINK_WriteReg(MSP, 0x20001000)
T1710 1676:932.850 - 0.010ms returns 0x00
T1710 1676:932.858 JLINK_WriteReg(PSP, 0x20001000)
T1710 1676:932.866 - 0.010ms returns 0x00
T1710 1676:932.874 JLINK_WriteReg(CFBP, 0x00000000)
T1710 1676:932.881 - 0.010ms returns 0x00
T1710 1676:932.890   JLINK_SetBPEx(Addr = 0x20000000, Type = 0xFFFFFFF2)
T1710 1676:932.901 - 0.014ms returns 0x0000000B
T1710 1676:932.910 JLINK_Go()
T1710 1676:932.922   CPU_ReadMem(4 bytes @ 0xE0001000)
T1710 1676:939.556 - 6.654ms
T1710 1676:939.571 JLINK_IsHalted()
T1710 1676:940.557 - 0.990ms returns FALSE
T1710 1676:942.551 JLINK_IsHalted()
T1710 1676:943.557 - 1.010ms returns FALSE
T1710 1676:945.548 JLINK_IsHalted()
T1710 1676:946.557 - 1.017ms returns FALSE
T1710 1676:948.548 JLINK_IsHalted()
T1710 1676:948.974 - 0.430ms returns FALSE
T1710 1676:950.548 JLINK_IsHalted()
T1710 1676:950.976 - 0.432ms returns FALSE
T1710 1676:952.969 JLINK_IsHalted()
T1710 1676:958.004   CPU_ReadMem(2 bytes @ 0x20000000)
T1710 1676:958.444 - 5.479ms returns TRUE
T1710 1676:958.454 JLINK_ReadReg(R15 (PC))
T1710 1676:958.464 - 0.012ms returns 0x20000000
T1710 1676:958.472 JLINK_ClrBPEx(BPHandle = 0x0000000B)
T1710 1676:958.479 - 0.010ms returns 0x00
T1710 1676:958.487 JLINK_ReadReg(R0)
T1710 1676:958.494 - 0.010ms returns 0x00000000
T1710 1676:958.929 JLINK_WriteMem(0x20000294, 0x016C Bytes, ...)
T1710 1676:958.939   Data:  20 02 0A 60 FF 22 CA 60 00 21 01 22 C1 62 02 63 ...
T1710 1676:958.951   CPU_WriteMem(364 bytes @ 0x20000294)
T1710 1676:963.557 - 4.635ms returns 0x16C
T1710 1676:963.571 JLINK_WriteMem(0x20000400, 0x0294 Bytes, ...)
T1710 1676:963.579   Data:  08 43 E9 68 10 43 08 43 E8 60 D4 E9 02 01 41 EA ...
T1710 1676:963.592   CPU_WriteMem(660 bytes @ 0x20000400)
T1710 1676:970.978 - 7.413ms returns 0x294
T1710 1676:970.993 JLINK_WriteReg(R0, 0x08001C00)
T1710 1676:971.000 - 0.010ms returns 0x00
T1710 1676:971.008 JLINK_WriteReg(R1, 0x00000400)
T1710 1676:971.014 - 0.009ms returns 0x00
T1710 1676:971.022 JLINK_WriteReg(R2, 0x20000294)
T1710 1676:971.028 - 0.009ms returns 0x00
T1710 1676:971.035 JLINK_WriteReg(R3, 0x00000000)
T1710 1676:971.041 - 0.009ms returns 0x00
T1710 1676:971.048 JLINK_WriteReg(R4, 0x00000000)
T1710 1676:971.054 - 0.008ms returns 0x00
T1710 1676:971.061 JLINK_WriteReg(R5, 0x00000000)
T1710 1676:971.067 - 0.009ms returns 0x00
T1710 1676:971.075 JLINK_WriteReg(R6, 0x00000000)
T1710 1676:971.081 - 0.008ms returns 0x00
T1710 1676:971.088 JLINK_WriteReg(R7, 0x00000000)
T1710 1676:971.094 - 0.009ms returns 0x00
T1710 1676:971.101 JLINK_WriteReg(R8, 0x00000000)
T1710 1676:971.107 - 0.009ms returns 0x00
T1710 1676:971.115 JLINK_WriteReg(R9, 0x20000290)
T1710 1676:971.121 - 0.008ms returns 0x00
T1710 1676:971.128 JLINK_WriteReg(R10, 0x00000000)
T1710 1676:971.134 - 0.009ms returns 0x00
T1710 1676:971.141 JLINK_WriteReg(R11, 0x00000000)
T1710 1676:971.147 - 0.008ms returns 0x00
T1710 1676:971.154 JLINK_WriteReg(R12, 0x00000000)
T1710 1676:971.160 - 0.008ms returns 0x00
T1710 1676:971.167 JLINK_WriteReg(R13 (SP), 0x20001000)
T1710 1676:971.174 - 0.009ms returns 0x00
T1710 1676:971.181 JLINK_WriteReg(R14, 0x20000001)
T1710 1676:971.187 - 0.009ms returns 0x00
T1710 1676:971.194 JLINK_WriteReg(R15 (PC), 0x2000013E)
T1710 1676:971.200 - 0.009ms returns 0x00
T1710 1676:971.208 JLINK_WriteReg(XPSR, 0x01000000)
T1710 1676:971.214 - 0.009ms returns 0x00
T1710 1676:971.221 JLINK_WriteReg(MSP, 0x20001000)
T1710 1676:971.232 - 0.014ms returns 0x00
T1710 1676:971.239 JLINK_WriteReg(PSP, 0x20001000)
T1710 1676:971.245 - 0.009ms returns 0x00
T1710 1676:971.253 JLINK_WriteReg(CFBP, 0x00000000)
T1710 1676:971.259 - 0.008ms returns 0x00
T1710 1676:971.266   JLINK_SetBPEx(Addr = 0x20000000, Type = 0xFFFFFFF2)
T1710 1676:971.275 - 0.012ms returns 0x0000000C
T1710 1676:971.283 JLINK_Go()
T1710 1676:971.293   CPU_ReadMem(4 bytes @ 0xE0001000)
T1710 1676:976.975 - 5.697ms
T1710 1676:976.985 JLINK_IsHalted()
T1710 1676:977.975 - 0.994ms returns FALSE
T1710 1676:979.970 JLINK_IsHalted()
T1710 1676:980.553 - 0.589ms returns FALSE
T1710 1676:981.969 JLINK_IsHalted()
T1710 1676:982.441 - 0.476ms returns FALSE
T1710 1676:984.434 JLINK_IsHalted()
T1710 1676:985.556 - 1.128ms returns FALSE
T1710 1676:987.435 JLINK_IsHalted()
T1710 1676:988.554 - 1.123ms returns FALSE
T1710 1676:990.548 JLINK_IsHalted()
T1710 1676:995.573   CPU_ReadMem(2 bytes @ 0x20000000)
T1710 1676:996.558 - 6.014ms returns TRUE
T1710 1676:996.568 JLINK_ReadReg(R15 (PC))
T1710 1676:996.576 - 0.011ms returns 0x20000000
T1710 1676:996.584 JLINK_ClrBPEx(BPHandle = 0x0000000C)
T1710 1676:996.591 - 0.010ms returns 0x00
T1710 1676:996.599 JLINK_ReadReg(R0)
T1710 1676:996.606 - 0.010ms returns 0x00000000
T1710 1676:997.011 JLINK_WriteMem(0x20000294, 0x016C Bytes, ...)
T1710 1676:997.021   Data:  1D 46 16 46 0F 46 01 28 02 D1 A0 68 01 28 02 D1 ...
T1710 1676:997.032   CPU_WriteMem(364 bytes @ 0x20000294)
T1710 1677:001.976 - 4.970ms returns 0x16C
T1710 1677:001.988 JLINK_WriteMem(0x20000400, 0x0294 Bytes, ...)
T1710 1677:001.994   Data:  C9 FF 70 06 02 D5 20 46 FF F7 3C FF 30 06 06 D5 ...
T1710 1677:002.007   CPU_WriteMem(660 bytes @ 0x20000400)
T1710 1677:009.555 - 7.572ms returns 0x294
